! Mini-Circuits  
! S2P DATA File Format
! Type: MMIC Amplifier
! Model: LEE-19+
! TEST CONDITIONS: INPUT POWER = -20dBm, Icc = 40mA, Vd = 3.64V @Temperature = +25degC
! 401 Frequency points
!
! S Parameters are in dB deg format
!
# MHz S DB R 50
!    FREQ       dB(S11)   PHS(S11)  dB(S21)   PHS(S21)  dB(S12)   PHS(S12)  dB(S22)   PHS(S22) 
   50.000000   -27.423    -1.558    12.548   174.887   -17.209    -3.653   -42.624   150.702 
   80.000000   -27.507    -1.536    12.552   172.527   -17.220    -5.649   -41.209   175.784 
  110.000000   -27.639    -3.164    12.539   169.922   -17.216    -7.850   -40.286  -175.298 
  140.000000   -27.609    -5.215    12.533   167.274   -17.217    -9.949   -40.142  -177.151 
  170.000000   -27.332    -7.659    12.525   164.578   -17.205   -11.920   -40.070  -178.365 
  200.000000   -27.549    -8.982    12.519   161.966   -17.238   -13.971   -40.048  -172.098 
  230.000000   -27.421   -11.269    12.513   159.311   -17.235   -16.184   -39.090  -169.985 
  260.000000   -27.471   -14.222    12.506   156.659   -17.231   -18.281   -38.574  -170.561 
  290.000000   -27.555   -16.615    12.501   153.986   -17.219   -20.309   -37.714  -168.856 
  320.000000   -27.513   -18.456    12.484   151.362   -17.236   -22.219   -37.449  -170.046 
  350.000000   -27.493   -20.634    12.476   148.723   -17.239   -24.483   -36.998  -168.326 
  380.000000   -27.472   -22.424    12.465   146.090   -17.234   -26.425   -36.504  -167.211 
  410.000000   -27.464   -24.879    12.464   143.439   -17.241   -28.525   -36.074  -170.205 
  440.000000   -27.641   -25.635    12.453   140.811   -17.241   -30.592   -35.278  -173.583 
  470.000000   -27.646   -27.544    12.449   138.178   -17.224   -32.652   -34.755  -173.521 
  500.000000   -27.700   -29.704    12.439   135.484   -17.231   -34.817   -34.379  -175.235 
  530.000000   -27.764   -31.744    12.432   132.878   -17.231   -36.816   -34.042  -175.823 
  560.000000   -27.662   -33.033    12.427   130.255   -17.231   -38.946   -33.427  -178.318 
  590.000000   -27.722   -34.586    12.417   127.611   -17.222   -40.985   -33.028  -179.363 
  620.000000   -27.798   -36.022    12.408   124.978   -17.218   -43.136   -32.594   178.419 
  650.000000   -27.915   -38.234    12.395   122.336   -17.217   -45.120   -32.378   177.022 
  680.000000   -27.985   -40.751    12.384   119.736   -17.213   -47.233   -32.074   173.421 
  710.000000   -27.961   -41.867    12.378   117.127   -17.215   -49.325   -31.648   172.433 
  740.000000   -28.023   -43.530    12.373   114.495   -17.223   -51.418   -31.419   170.069 
  770.000000   -28.133   -45.587    12.359   111.891   -17.213   -53.470   -31.189   166.592 
  800.000000   -28.199   -47.577    12.347   109.255   -17.205   -55.574   -31.021   163.794 
  830.000000   -28.143   -49.577    12.347   106.634   -17.211   -57.658   -30.666   160.485 
  860.000000   -28.281   -51.607    12.337   104.014   -17.203   -59.716   -30.559   158.474 
  890.000000   -28.441   -53.451    12.323   101.382   -17.205   -61.821   -30.313   154.673 
  920.000000   -28.430   -54.974    12.311    98.790   -17.203   -63.918   -30.123   152.166 
  950.000000   -28.579   -57.587    12.305    96.154   -17.203   -65.991   -29.787   149.707 
  980.000000   -28.557   -59.242    12.299    93.560   -17.199   -68.032   -29.598   146.720 
 1010.000000   -28.698   -61.032    12.289    90.927   -17.195   -70.164   -29.392   144.395 
 1040.000000   -28.677   -62.386    12.280    88.313   -17.189   -72.204   -29.030   141.753 
 1070.000000   -28.823   -63.863    12.265    85.718   -17.187   -74.352   -28.787   140.193 
 1100.000000   -28.817   -65.334    12.256    83.126   -17.189   -76.424   -28.563   138.026 
 1130.000000   -28.798   -67.633    12.251    80.492   -17.186   -78.458   -28.450   135.708 
 1160.000000   -28.879   -69.064    12.241    77.880   -17.182   -80.566   -28.183   133.622 
 1190.000000   -28.932   -70.912    12.235    75.306   -17.178   -82.658   -28.007   131.687 
 1220.000000   -28.857   -72.506    12.223    72.719   -17.177   -84.659   -27.949   129.989 
 1250.000000   -28.838   -75.114    12.218    70.105   -17.178   -86.835   -27.852   127.683 
 1280.000000   -28.852   -77.636    12.202    67.502   -17.171   -88.906   -27.746   125.630 
 1310.000000   -28.888   -79.864    12.198    64.913   -17.172   -90.973   -27.692   122.819 
 1340.000000   -29.035   -81.926    12.190    62.322   -17.160   -93.069   -27.674   120.664 
 1370.000000   -29.076   -84.372    12.183    59.716   -17.159   -95.142   -27.462   117.319 
 1400.000000   -29.244   -87.201    12.168    57.097   -17.158   -97.281   -27.471   114.737 
 1430.000000   -29.174   -89.313    12.158    54.515   -17.151   -99.397   -27.377   112.280 
 1460.000000   -29.267   -91.898    12.155    51.924   -17.159  -101.415   -27.239   109.155 
 1490.000000   -29.397   -93.184    12.144    49.336   -17.148  -103.531   -27.046   106.622 
 1520.000000   -29.481   -95.461    12.131    46.719   -17.145  -105.614   -26.844   104.224 
 1550.000000   -29.522   -98.610    12.123    44.128   -17.143  -107.753   -26.672   101.637 
 1580.000000   -29.534   -99.637    12.116    41.541   -17.137  -109.803   -26.564    99.417 
 1610.000000   -29.451  -101.247    12.108    38.948   -17.141  -111.860   -26.343    97.139 
 1640.000000   -29.563  -103.168    12.089    36.339   -17.138  -113.977   -26.212    95.819 
 1670.000000   -29.606  -105.648    12.084    33.733   -17.130  -116.097   -26.094    94.132 
 1700.000000   -29.515  -108.225    12.072    31.187   -17.126  -118.147   -26.059    92.226 
 1730.000000   -29.403  -110.113    12.067    28.582   -17.130  -120.247   -25.882    89.909 
 1760.000000   -29.463  -111.941    12.059    26.001   -17.118  -122.330   -25.774    88.416 
 1790.000000   -29.451  -114.927    12.048    23.401   -17.119  -124.426   -25.788    86.581 
 1820.000000   -29.501  -117.878    12.038    20.819   -17.110  -126.536   -25.832    84.868 
 1850.000000   -29.483  -120.846    12.029    18.245   -17.110  -128.582   -25.755    82.510 
 1880.000000   -29.579  -123.212    12.022    15.633   -17.107  -130.686   -25.705    80.299 
 1910.000000   -29.523  -126.349    12.020    13.076   -17.098  -132.801   -25.698    77.588 
 1940.000000   -29.538  -129.457    12.007    10.481   -17.093  -134.892   -25.686    74.936 
 1970.000000   -29.626  -131.957    11.995     7.871   -17.084  -137.005   -25.590    72.984 
 2000.000000   -29.544  -134.974    11.991     5.322   -17.085  -139.043   -25.522    70.722 
 2030.000000   -29.632  -137.779    11.975     2.695   -17.086  -141.182   -25.518    68.658 
 2060.000000   -29.508  -141.822    11.971     0.084   -17.078  -143.261   -25.434    65.994 
 2090.000000   -29.592  -143.259    11.963    -2.503   -17.068  -145.381   -25.260    64.242 
 2120.000000   -29.456  -145.688    11.952    -5.088   -17.077  -147.499   -25.232    61.897 
 2150.000000   -29.336  -149.236    11.939    -7.674   -17.059  -149.511   -25.351    60.562 
 2180.000000   -29.224  -152.701    11.930   -10.280   -17.062  -151.658   -25.249    58.830 
 2210.000000   -29.082  -154.386    11.922   -12.844   -17.059  -153.743   -25.165    57.234 
 2240.000000   -28.984  -156.868    11.908   -15.421   -17.052  -155.843   -25.070    55.736 
 2270.000000   -29.009  -160.469    11.910   -18.008   -17.045  -157.962   -25.094    54.102 
 2300.000000   -28.956  -164.092    11.888   -20.592   -17.041  -160.059   -25.185    52.375 
 2330.000000   -28.686  -166.425    11.881   -23.162   -17.038  -162.131   -25.176    50.496 
 2360.000000   -28.575  -169.712    11.873   -25.775   -17.028  -164.264   -25.178    49.204 
 2390.000000   -28.479  -172.630    11.860   -28.359   -17.028  -166.327   -25.155    46.787 
 2420.000000   -28.521  -176.180    11.855   -30.942   -17.014  -168.462   -25.147    44.407 
 2450.000000   -28.430  -178.758    11.845   -33.535   -17.017  -170.563   -25.098    41.878 
 2480.000000   -28.415   177.592    11.833   -36.131   -17.018  -172.708   -25.180    40.526 
 2510.000000   -28.267   174.280    11.819   -38.707   -17.013  -174.778   -25.187    38.510 
 2540.000000   -28.105   171.678    11.817   -41.271   -17.006  -176.875   -25.177    36.080 
 2570.000000   -28.010   169.057    11.800   -43.848   -17.006  -178.968   -25.142    34.419 
 2600.000000   -27.876   166.373    11.797   -46.420   -17.009   178.965   -25.149    32.588 
 2630.000000   -27.938   163.137    11.783   -49.013   -16.985   176.881   -25.195    30.789 
 2660.000000   -27.618   159.387    11.770   -51.578   -16.983   174.776   -25.154    28.853 
 2690.000000   -27.532   155.704    11.761   -54.156   -16.971   172.661   -25.143    27.486 
 2720.000000   -27.367   152.892    11.751   -56.757   -16.973   170.513   -25.151    25.269 
 2750.000000   -27.345   149.818    11.742   -59.345   -16.960   168.362   -25.186    23.305 
 2780.000000   -27.344   147.490    11.726   -61.937   -16.962   166.316   -25.159    20.681 
 2810.000000   -27.178   144.674    11.715   -64.492   -16.966   164.256   -25.229    19.595 
 2840.000000   -26.893   140.682    11.710   -67.085   -16.951   162.135   -25.335    18.243 
 2870.000000   -26.728   137.168    11.702   -69.658   -16.942   159.980   -25.437    16.197 
 2900.000000   -26.616   134.456    11.689   -72.245   -16.936   157.890   -25.417    13.700 
 2930.000000   -26.590   131.840    11.681   -74.809   -16.933   155.823   -25.438    11.788 
 2960.000000   -26.387   128.821    11.668   -77.362   -16.915   153.672   -25.495    10.368 
 2990.000000   -26.171   125.149    11.659   -79.965   -16.909   151.552   -25.530     7.924 
 3020.000000   -26.205   122.407    11.652   -82.562   -16.909   149.473   -25.475     5.833 
 3050.000000   -26.091   119.548    11.637   -85.173   -16.897   147.277   -25.468     3.451 
 3090.000000   -25.852   116.302    11.617   -88.594   -16.914   144.453   -25.662     1.395 
 3120.000000   -25.729   113.738    11.602   -91.160   -16.899   142.405   -25.665    -0.629 
 3160.000000   -25.541   110.473    11.595   -94.583   -16.890   139.588   -25.680    -3.562 
 3190.000000   -25.465   107.680    11.583   -97.164   -16.883   137.447   -25.797    -5.238 
 3230.000000   -25.255   104.152    11.560  -100.582   -16.872   134.695   -26.020    -7.723 
 3260.000000   -25.113   101.681    11.548  -103.123   -16.876   132.607   -26.004    -9.266 
 3300.000000   -24.962    97.476    11.544  -106.570   -16.863   129.728   -26.027   -11.473 
 3330.000000   -24.784    94.344    11.534  -109.126   -16.850   127.669   -26.171   -13.969 
 3370.000000   -24.728    91.296    11.514  -112.558   -16.845   124.895   -26.241   -16.452 
 3400.000000   -24.507    88.651    11.505  -115.100   -16.832   122.755   -26.247   -17.919 
 3440.000000   -24.354    83.861    11.492  -118.554   -16.815   119.895   -26.425   -20.750 
 3470.000000   -24.297    81.134    11.474  -121.183   -16.820   117.738   -26.627   -23.551 
 3510.000000   -24.106    78.095    11.464  -124.550   -16.812   114.962   -26.674   -26.069 
 3540.000000   -23.990    75.237    11.456  -127.130   -16.813   112.840   -26.841   -28.142 
 3580.000000   -23.871    71.487    11.436  -130.557   -16.786   110.028   -27.044   -31.084 
 3610.000000   -23.724    69.113    11.429  -133.120   -16.783   107.961   -27.063   -33.351 
 3650.000000   -23.741    64.881    11.417  -136.588   -16.774   105.086   -27.080   -36.610 
 3680.000000   -23.689    62.341    11.401  -139.165   -16.765   102.864   -27.393   -40.223 
 3720.000000   -23.394    59.889    11.380  -142.538   -16.761   100.115   -27.640   -41.434 
 3750.000000   -23.313    57.387    11.371  -145.096   -16.742    98.055   -27.617   -42.928 
 3790.000000   -23.159    53.666    11.352  -148.527   -16.741    95.201   -27.920   -46.178 
 3820.000000   -23.043    51.252    11.344  -151.087   -16.731    93.055   -28.148   -48.339 
 3860.000000   -22.945    47.615    11.336  -154.530   -16.713    90.199   -28.216   -51.617 
 3890.000000   -22.965    45.357    11.319  -157.111   -16.711    88.029   -28.401   -54.116 
 3930.000000   -22.939    41.707    11.296  -160.531   -16.711    85.172   -28.802   -58.526 
 3960.000000   -22.789    39.765    11.291  -163.063   -16.696    83.071   -29.214   -60.946 
 4000.000000   -22.752    36.309    11.273  -166.492   -16.690    80.332   -29.351   -64.697 
 4030.000000   -22.720    33.362    11.260  -169.024   -16.678    78.193   -29.598   -67.777 
 4070.000000   -22.575    29.325    11.254  -172.488   -16.664    75.369   -29.699   -70.912 
 4100.000000   -22.562    27.240    11.234  -175.070   -16.658    73.180   -29.775   -74.119 
 4140.000000   -22.503    24.012    11.218  -178.495   -16.643    70.325   -30.099   -79.749 
 4170.000000   -22.583    21.077    11.202   178.936   -16.636    68.187   -30.226   -83.597 
 4210.000000   -22.550    18.063    11.188   175.501   -16.625    65.330   -30.531   -88.644 
 4240.000000   -22.434    15.724    11.173   172.933   -16.621    63.173   -30.836   -91.451 
 4280.000000   -22.502    12.950    11.141   169.536   -16.611    60.321   -31.244   -98.210 
 4310.000000   -22.330    10.702    11.138   167.039   -16.619    58.191   -31.683  -100.009 
 4350.000000   -22.343     7.743    11.127   163.624   -16.599    55.431   -31.847  -103.955 
 4380.000000   -22.308     4.753    11.115   161.086   -16.588    53.305   -32.035  -108.266 
 4420.000000   -22.341     0.891    11.103   157.649   -16.565    50.501   -32.168  -114.589 
 4450.000000   -22.338    -1.714    11.087   155.052   -16.561    48.334   -32.189  -118.719 
 4490.000000   -22.359    -5.044    11.074   151.653   -16.544    45.450   -32.348  -126.139 
 4520.000000   -22.434    -7.757    11.062   149.041   -16.530    43.286   -32.309  -131.239 
 4560.000000   -22.485   -11.574    11.042   145.615   -16.517    40.441   -32.115  -137.713 
 4590.000000   -22.499   -14.364    11.022   143.027   -16.506    38.253   -32.260  -143.449 
 4630.000000   -22.589   -17.523    11.009   139.664   -16.504    35.425   -32.377  -152.209 
 4660.000000   -22.615   -19.723    10.999   137.162   -16.510    33.239   -32.490  -157.541 
 4700.000000   -22.675   -24.340    10.984   133.727   -16.485    30.449   -32.433  -162.211 
 4730.000000   -22.591   -27.576    10.970   131.139   -16.479    28.276   -32.363  -168.052 
 4770.000000   -22.708   -30.440    10.950   127.727   -16.462    25.366   -32.084  -175.943 
 4800.000000   -22.801   -32.914    10.930   125.172   -16.453    23.234   -31.741   178.964 
 4840.000000   -22.862   -36.783    10.911   121.728   -16.449    20.337   -31.756   171.177 
 4870.000000   -22.875   -39.294    10.892   119.199   -16.447    18.129   -31.302   166.494 
 4910.000000   -22.891   -42.245    10.878   115.872   -16.441    15.338   -31.208   160.786 
 4940.000000   -22.887   -45.203    10.872   113.297   -16.422    13.264   -31.120   157.793 
 4980.000000   -22.911   -48.603    10.859   109.903   -16.413    10.387   -30.778   152.495 
 5010.000000   -22.988   -51.669    10.851   107.348   -16.391     8.272   -30.431   149.659 
 5050.000000   -23.185   -56.528    10.827   103.841   -16.368     5.352   -29.828   144.560 
 5080.000000   -23.282   -59.505    10.812   101.323   -16.363     3.144   -29.482   139.210 
 5120.000000   -23.473   -62.752    10.794    97.933   -16.357     0.299   -29.070   133.449 
 5150.000000   -23.638   -66.245    10.780    95.333   -16.345    -1.852   -28.686   130.678 
 5190.000000   -23.707   -70.957    10.758    91.924   -16.324    -4.813   -28.164   124.653 
 5220.000000   -23.798   -73.211    10.734    89.348   -16.319    -7.028   -27.762   121.079 
 5260.000000   -23.919   -76.118    10.720    86.035   -16.324    -9.864   -27.403   115.995 
 5290.000000   -23.931   -79.922    10.712    83.496   -16.310   -11.971   -27.294   113.039 
 5330.000000   -23.986   -84.981    10.694    80.039   -16.282   -14.900   -26.733   109.152 
 5360.000000   -24.101   -87.532    10.677    77.499   -16.284   -17.067   -26.426   105.756 
 5400.000000   -24.335   -91.799    10.651    74.066   -16.273   -19.934   -26.058   102.187 
 5430.000000   -24.277   -95.247    10.645    71.589   -16.268   -22.129   -25.816    98.563 
 5470.000000   -24.474   -99.675    10.636    68.156   -16.246   -24.968   -25.371    95.634 
 5500.000000   -24.704  -103.967    10.615    65.538   -16.228   -27.169   -24.949    93.595 
 5540.000000   -24.933  -109.065    10.592    62.099   -16.216   -30.067   -24.541    89.953 
 5570.000000   -25.055  -112.302    10.574    59.572   -16.203   -32.267   -24.324    87.063 
 5610.000000   -25.404  -116.719    10.547    56.191   -16.190   -35.258   -23.794    83.541 
 5640.000000   -25.561  -119.609    10.527    53.726   -16.204   -37.469   -23.666    79.953 
 5680.000000   -25.468  -124.463    10.520    50.363   -16.191   -40.309   -23.569    76.222 
 5710.000000   -25.398  -127.744    10.503    47.801   -16.179   -42.415   -23.287    73.976 
 5750.000000   -25.466  -132.063    10.492    44.402   -16.171   -45.274   -23.104    71.011 
 5780.000000   -25.465  -135.550    10.474    41.870   -16.158   -47.497   -22.891    68.024 
 5820.000000   -25.418  -140.433    10.467    38.481   -16.153   -50.310   -22.681    64.484 
 5850.000000   -25.448  -144.332    10.457    35.866   -16.130   -52.468   -22.452    62.911 
 5890.000000   -25.495  -150.514    10.431    32.434   -16.111   -55.393   -22.211    59.802 
 5920.000000   -25.515  -155.093    10.419    29.856   -16.099   -57.542   -21.915    57.131 
 5960.000000   -25.873  -161.430    10.395    26.435   -16.072   -60.521   -21.523    54.342 
 5990.000000   -25.989  -166.268    10.375    23.865   -16.060   -62.743   -21.281    52.471 
 6030.000000   -25.979  -172.275    10.344    20.464   -16.048   -65.706   -20.928    48.241 
 6060.000000   -26.177  -177.043    10.323    17.968   -16.040   -67.975   -20.591    45.264 
 6100.000000   -26.255   178.747    10.299    14.722   -16.045   -70.892   -20.452    41.506 
 6130.000000   -25.777   175.863    10.302    12.130   -16.037   -73.070   -20.458    39.184 
 6170.000000   -25.508   170.762    10.282     8.657   -16.019   -75.901   -20.231    36.237 
 6200.000000   -25.598   166.176    10.256     6.144   -16.006   -78.139   -19.966    33.516 
 6240.000000   -25.539   162.474    10.240     2.831   -16.005   -81.099   -19.856    29.689 
 6270.000000   -25.394   159.341    10.234     0.275   -15.992   -83.284   -19.719    27.490 
 6310.000000   -25.614   153.841    10.200    -3.130   -15.968   -86.219   -19.458    24.560 
 6340.000000   -25.680   150.358    10.181    -5.602   -15.971   -88.449   -19.340    21.852 
 6380.000000   -25.508   147.487    10.176    -8.884   -15.981   -91.372   -19.268    18.175 
 6410.000000   -25.531   143.129    10.173   -11.459   -15.963   -93.511   -19.130    16.121 
 6450.000000   -25.259   137.534    10.152   -14.899   -15.946   -96.375   -18.930    13.625 
 6480.000000   -25.035   134.194    10.138   -17.433   -15.936   -98.621   -18.811    11.227 
 6520.000000   -25.114   129.256    10.120   -20.837   -15.917  -101.522   -18.603     8.069 
 6550.000000   -25.158   124.517    10.110   -23.407   -15.904  -103.619   -18.433     6.247 
 6590.000000   -24.925   119.079    10.081   -26.817   -15.884  -106.652   -18.262     3.515 
 6620.000000   -24.979   116.086    10.062   -29.318   -15.880  -108.893   -18.164     0.827 
 6660.000000   -24.822   112.783    10.053   -32.710   -15.866  -111.818   -18.057    -2.344 
 6690.000000   -24.593   109.329    10.040   -35.248   -15.860  -113.974   -17.972    -4.620 
 6730.000000   -24.562   104.339    10.010   -38.601   -15.835  -116.978   -17.789    -8.533 
